
T2304 000:519 SEGGER J-Link V4.90 Log File (0000ms, 0285ms total)
T2304 000:519 DLL Compiled: Jul 28 2014 10:35:20 (0000ms, 0285ms total)
T2304 000:519 Logging started @ 2019-12-14 11:14 (0000ms, 0285ms total)
T2304 000:519 JLINK_SetWarnOutHandler(...) (0000ms, 0285ms total)
T2304 000:519 JLINK_OpenEx(...)
Firmware: J-Link ARM V8 compiled Nov 28 2014 13:44:46
Hardware: V8.00
Feature(s): RDI,FlashDL,FlashBP,JFlash,GDB  returns O.K. (0274ms, 0559ms total)
T2304 000:793 JLINK_SetErrorOutHandler(...) (0000ms, 0559ms total)
T2304 000:793 JLINK_ExecCommand("ProjectFile = "D:\jiang\test\CW401-TFTÍ¨Ñ¸°å\Project\JLinkSettings.ini"", ...)  returns 0x00 (0003ms, 0562ms total)
T2304 000:819 JLINK_ExecCommand("Device = STM32F103RB", ...)Device "STM32F103RB" selected (128 KB flash, 20 KB RAM).  returns 0x00 (0005ms, 0567ms total)
T2304 000:824 JLINK_ExecCommand("DisableConnectionTimeout", ...)  returns 0x01 (0000ms, 0567ms total)
T2304 000:824 JLINK_GetHardwareVersion()  returns 0x13880 (0000ms, 0567ms total)
T2304 000:824 JLINK_GetDLLVersion()  returns 49000 (0000ms, 0567ms total)
T2304 000:824 JLINK_GetFirmwareString(...) (0000ms, 0567ms total)
T2304 000:830 JLINK_GetDLLVersion()  returns 49000 (0000ms, 0567ms total)
T2304 000:830 JLINK_GetCompileDateTime() (0000ms, 0567ms total)
T2304 000:831 JLINK_GetFirmwareString(...) (0000ms, 0567ms total)
T2304 000:832 JLINK_GetHardwareVersion()  returns 0x13880 (0000ms, 0567ms total)
T2304 000:836 JLINK_TIF_Select(JLINKARM_TIF_JTAG)  returns 0x00 (0006ms, 0573ms total)
T2304 000:842 JLINK_SetSpeed(2000) (0001ms, 0574ms total)
T2304 000:843 JLINK_GetIdData(...) >0x2F8 JTAG>TotalIRLen = 9, IRPrint = 0x0011 >0x30 JTAG> >0x210 JTAG> >0x40 JTAG> >0x40 JTAG> >0x40 JTAG> >0x30 JTAG> >0x40 JTAG> >0x40 JTAG> >0x40 JTAG> >0x40 JTAG> >0x40 JTAG> >0x40 JTAG> >0x40 JTAG> >0x40 JTAG> >0x40 JTAG> >0x40 JTAG> >0x2F8 JTAG>TotalIRLen = 9, IRPrint = 0x0011 >0x30 JTAG> >0x210 JTAG> >0x70 JTAG> >0x40 JTAG> >0x40 JTAG> >0x40 JTAG> >0x50 JTAG> >0x80 JTAG> >0x40 JTAG> >0x30 JTAG> >0x40 JTAG> >0x40 JTAG> >0x30 JTAG> >0x40 JTAG> >0x50 JTAG>
Found Cortex-M3 r1p1, Little endian. -- CPU_WriteMem(4 bytes @ 0xE0002000) -- CPU_ReadMem(4 bytes @ 0xE000EDF0) -- CPU_WriteMem(4 bytes @ 0xE000EDF0) -- CPU_ReadMem(4 bytes @ 0xE0002000)FPUnit: 6 code (BP) slots and 2 literal slots -- CPU_ReadMem(4 bytes @ 0xE000EDFC) -- CPU_WriteMem(4 bytes @ 0xE000EDFC) -- CPU_ReadMem(4 bytes @ 0xE0001000) -- CPU_WriteMem(4 bytes @ 0xE0001000) -- CPU_ReadMem(4 bytes @ 0xE00FF010)TPIU fitted. -- CPU_ReadMem(4 bytes @ 0xE00FF014) -- CPU_ReadMem(4 bytes @ 0xE00FF018)
 ScanLen=9 NumDevices=2 aId[0]=0x3BA00477 aIrRead[0]=0 aScanLen[0]=0 aScanRead[0]=0 (0067ms, 0641ms total)
T2304 000:910 JLINK_JTAG_GetDeviceID(DeviceIndex = 0)  returns 0x3BA00477 (0000ms, 0641ms total)
T2304 000:910 JLINK_JTAG_GetDeviceInfo(DeviceIndex = 0)  returns 0x00 (0000ms, 0641ms total)
T2304 000:910 JLINK_JTAG_GetDeviceID(DeviceIndex = 1)  returns 0x16410041 (0001ms, 0642ms total)
T2304 000:911 JLINK_JTAG_GetDeviceInfo(DeviceIndex = 1)  returns 0x00 (0000ms, 0642ms total)
T2304 000:911 JLINK_GetDeviceFamily()  returns 3 (0000ms, 0642ms total)
T2304 000:915 JLINK_ReadMem (0xE00FFFF0, 0x0010 Bytes, ...) -- CPU is running -- CPU_ReadMem(16 bytes @ 0xE00FFFF0) - Data: 0D 00 00 00 10 00 00 00 05 00 00 00 B1 00 00 00  returns 0x00 (0001ms, 0643ms total)
T2304 000:916 JLINK_ReadMem (0xE00FFFD0, 0x0020 Bytes, ...) -- CPU is running -- CPU_ReadMem(32 bytes @ 0xE00FFFD0) - Data: 00 00 00 00 00 00 00 00 00 00 00 00 00 00 00 00 ...  returns 0x00 (0002ms, 0645ms total)
T2304 000:918 JLINK_ReadMem (0xE00FF000, 0x0018 Bytes, ...) -- CPU is running -- CPU_ReadMem(24 bytes @ 0xE00FF000) - Data: 03 F0 F0 FF 03 20 F0 FF 03 30 F0 FF 03 10 F0 FF ...  returns 0x00 (0002ms, 0647ms total)
T2304 000:920 JLINK_ReadMemU32(0xE000ED00, 0x0001 Items, ...) -- CPU is running -- CPU_ReadMem(4 bytes @ 0xE000ED00) - Data: 31 C2 1F 41  returns 0x01 (0001ms, 0648ms total)
T2304 000:921 JLINK_SetResetType(JLINKARM_RESET_TYPE_NORMAL)  returns JLINKARM_RESET_TYPE_NORMAL (0000ms, 0648ms total)
T2304 000:921 JLINK_Reset() -- CPU is running -- CPU_WriteMem(4 bytes @ 0xE000EDF0) -- CPU is running -- CPU_WriteMem(4 bytes @ 0xE000EDFC) -- CPU is running -- CPU_WriteMem(4 bytes @ 0xE000ED0C) -- CPU is running -- CPU_ReadMem(4 bytes @ 0xE000EDF0) -- CPU is running -- CPU_ReadMem(4 bytes @ 0xE000EDF0) -- CPU is running -- CPU_WriteMem(4 bytes @ 0xE000EDF0) -- CPU is running -- CPU_WriteMem(4 bytes @ 0xE000EDFC) -- CPU is running -- CPU_ReadMem(4 bytes @ 0xE000EDF0) >0x80 JTAG> >0x40 JTAG> >0x30 JTAG>
 >0x40 JTAG> >0x50 JTAG> >0x40 JTAG> -- CPU_WriteMem(4 bytes @ 0xE000EDFC) -- CPU_WriteMem(4 bytes @ 0xE0001028) -- CPU_WriteMem(4 bytes @ 0xE0001038) -- CPU_WriteMem(4 bytes @ 0xE0001048) -- CPU_WriteMem(4 bytes @ 0xE0001058) -- CPU_WriteMem(4 bytes @ 0xE0002000) -- CPU_ReadMem(4 bytes @ 0xE000EDFC) -- CPU_ReadMem(4 bytes @ 0xE0001000) (0040ms, 0688ms total)
T2304 000:961 JLINK_Halt()  returns 0x00 (0000ms, 0688ms total)
T2304 000:961 JLINK_IsHalted()  returns TRUE (0000ms, 0688ms total)
T2304 000:961 JLINK_ReadMemU32(0xE000EDF0, 0x0001 Items, ...) -- CPU_ReadMem(4 bytes @ 0xE000EDF0) - Data: 03 00 03 00  returns 0x01 (0002ms, 0690ms total)
T2304 000:963 JLINK_WriteU32(0xE000EDF0, 0xA05F0003) -- CPU_WriteMem(4 bytes @ 0xE000EDF0)  returns 0x00 (0001ms, 0691ms total)
T2304 000:964 JLINK_WriteU32(0xE000EDFC, 0x01000000) -- CPU_WriteMem(4 bytes @ 0xE000EDFC)  returns 0x00 (0001ms, 0692ms total)
T2304 000:978 JLINK_GetHWStatus(...)  returns 0x00 (0001ms, 0693ms total)
T2304 000:987 JLINK_GetNumBPUnits(Type = 0xFFFFFF00)  returns 0x06 (0000ms, 0693ms total)
T2304 000:987 JLINK_GetNumBPUnits(Type = 0xF0)  returns 0x2000 (0000ms, 0693ms total)
T2304 000:987 JLINK_GetNumWPUnits()  returns 0x04 (0000ms, 0693ms total)
T2304 000:995 JLINK_GetSpeed()  returns 0x7D0 (0000ms, 0693ms total)
T2304 000:998 JLINK_ReadMemU32(0xE000E004, 0x0001 Items, ...) -- CPU_ReadMem(4 bytes @ 0xE000E004) - Data: 01 00 00 00  returns 0x01 (0001ms, 0694ms total)
T2304 000:999 JLINK_ReadMemU32(0xE000E004, 0x0001 Items, ...) -- CPU_ReadMem(4 bytes @ 0xE000E004) - Data: 01 00 00 00  returns 0x01 (0001ms, 0695ms total)
T2304 001:000 JLINK_WriteMem(0xE0001000, 0x001C Bytes, ...) - Data: 01 00 00 00 00 00 00 00 00 00 00 00 00 00 00 00 ... -- CPU_WriteMem(28 bytes @ 0xE0001000)  returns 0x1C (0001ms, 0696ms total)
T2304 001:001 JLINK_ReadMem (0xE0001000, 0x001C Bytes, ...) -- CPU_ReadMem(28 bytes @ 0xE0001000) - Data: 01 00 00 40 00 00 00 00 00 00 00 00 00 00 00 00 ...  returns 0x00 (0002ms, 0698ms total)
T2304 001:003 JLINK_Halt()  returns 0x00 (0000ms, 0698ms total)
T2304 001:003 JLINK_IsHalted()  returns TRUE (0000ms, 0698ms total)
T2304 001:009 JLINK_WriteMem(0x20000000, 0x0164 Bytes, ...) - Data: 00 BE 0A E0 0D 78 2D 06 68 40 08 24 40 00 00 D3 ... -- CPU_WriteMem(356 bytes @ 0x20000000)  returns 0x164 (0003ms, 0701ms total)
T2304 001:012 JLINK_WriteReg(R0, 0x08000000)  returns 0x00 (0000ms, 0701ms total)
T2304 001:012 JLINK_WriteReg(R1, 0x00B71B00)  returns 0x00 (0000ms, 0701ms total)
T2304 001:012 JLINK_WriteReg(R2, 0x00000001)  returns 0x00 (0000ms, 0701ms total)
T2304 001:012 JLINK_WriteReg(R3, 0x00000000)  returns 0x00 (0000ms, 0701ms total)
T2304 001:012 JLINK_WriteReg(R4, 0x00000000)  returns 0x00 (0000ms, 0701ms total)
T2304 001:012 JLINK_WriteReg(R5, 0x00000000)  returns 0x00 (0000ms, 0701ms total)
T2304 001:012 JLINK_WriteReg(R6, 0x00000000)  returns 0x00 (0000ms, 0701ms total)
T2304 001:012 JLINK_WriteReg(R7, 0x00000000)  returns 0x00 (0000ms, 0701ms total)
T2304 001:012 JLINK_WriteReg(R8, 0x00000000)  returns 0x00 (0000ms, 0701ms total)
T2304 001:012 JLINK_WriteReg(R9, 0x20000160)  returns 0x00 (0000ms, 0701ms total)
T2304 001:012 JLINK_WriteReg(R10, 0x00000000)  returns 0x00 (0000ms, 0701ms total)
T2304 001:012 JLINK_WriteReg(R11, 0x00000000)  returns 0x00 (0001ms, 0702ms total)
T2304 001:013 JLINK_WriteReg(R12, 0x00000000)  returns 0x00 (0000ms, 0702ms total)
T2304 001:013 JLINK_WriteReg(R13 (SP), 0x20000800)  returns 0x00 (0000ms, 0702ms total)
T2304 001:013 JLINK_WriteReg(R14, 0x20000001)  returns 0x00 (0000ms, 0702ms total)
T2304 001:013 JLINK_WriteReg(R15 (PC), 0x20000038)  returns 0x00 (0000ms, 0702ms total)
T2304 001:013 JLINK_WriteReg(XPSR, 0x01000000)  returns 0x00 (0000ms, 0702ms total)
T2304 001:013 JLINK_WriteReg(MSP, 0x20000800)  returns 0x00 (0000ms, 0702ms total)
T2304 001:013 JLINK_WriteReg(PSP, 0x20000800)  returns 0x00 (0000ms, 0702ms total)
T2304 001:013 JLINK_WriteReg(CFBP, 0x00000000)  returns 0x00 (0000ms, 0702ms total)
T2304 001:013 JLINK_SetBPEx(Addr = 0x20000000, Type = 0xFFFFFFF2) -- CPU_ReadMem(2 bytes @ 0x20000000)  returns 0x00000001 (0001ms, 0703ms total)
T2304 001:014 JLINK_Go() -- CPU_WriteMem(2 bytes @ 0x20000000) -- CPU_WriteMem(4 bytes @ 0xE0002008) -- CPU_WriteMem(4 bytes @ 0xE000200C) -- CPU_WriteMem(4 bytes @ 0xE0002010) -- CPU_WriteMem(4 bytes @ 0xE0002014) -- CPU_WriteMem(4 bytes @ 0xE0002018) -- CPU_WriteMem(4 bytes @ 0xE000201C) -- CPU_WriteMem(4 bytes @ 0xE0001004) (0011ms, 0714ms total)
T2304 001:025 JLINK_IsHalted() -- CPU_ReadMem(2 bytes @ 0x20000000)  returns TRUE (0006ms, 0720ms total)
T2304 001:031 JLINK_ReadReg(R15 (PC))  returns 0x20000000 (0000ms, 0714ms total)
T2304 001:031 JLINK_ClrBPEx(BPHandle = 0x00000001)  returns 0x00 (0000ms, 0714ms total)
T2304 001:031 JLINK_ReadReg(R0)  returns 0x00000000 (0001ms, 0715ms total)
T2304 001:032 JLINK_WriteReg(R0, 0x08000000)  returns 0x00 (0000ms, 0715ms total)
T2304 001:032 JLINK_WriteReg(R1, 0x00B71B00)  returns 0x00 (0000ms, 0715ms total)
T2304 001:032 JLINK_WriteReg(R2, 0x00000001)  returns 0x00 (0000ms, 0715ms total)
T2304 001:032 JLINK_WriteReg(R3, 0x00000000)  returns 0x00 (0000ms, 0715ms total)
T2304 001:032 JLINK_WriteReg(R4, 0x00000000)  returns 0x00 (0000ms, 0715ms total)
T2304 001:032 JLINK_WriteReg(R5, 0x00000000)  returns 0x00 (0001ms, 0716ms total)
T2304 001:033 JLINK_WriteReg(R6, 0x00000000)  returns 0x00 (0000ms, 0716ms total)
T2304 001:033 JLINK_WriteReg(R7, 0x00000000)  returns 0x00 (0000ms, 0716ms total)
T2304 001:033 JLINK_WriteReg(R8, 0x00000000)  returns 0x00 (0000ms, 0716ms total)
T2304 001:033 JLINK_WriteReg(R9, 0x20000160)  returns 0x00 (0000ms, 0716ms total)
T2304 001:033 JLINK_WriteReg(R10, 0x00000000)  returns 0x00 (0000ms, 0716ms total)
T2304 001:033 JLINK_WriteReg(R11, 0x00000000)  returns 0x00 (0000ms, 0716ms total)
T2304 001:033 JLINK_WriteReg(R12, 0x00000000)  returns 0x00 (0000ms, 0716ms total)
T2304 001:033 JLINK_WriteReg(R13 (SP), 0x20000800)  returns 0x00 (0000ms, 0716ms total)
T2304 001:033 JLINK_WriteReg(R14, 0x20000001)  returns 0x00 (0000ms, 0716ms total)
T2304 001:033 JLINK_WriteReg(R15 (PC), 0x2000007C)  returns 0x00 (0000ms, 0716ms total)
T2304 001:033 JLINK_WriteReg(XPSR, 0x01000000)  returns 0x00 (0000ms, 0716ms total)
T2304 001:033 JLINK_WriteReg(MSP, 0x20000800)  returns 0x00 (0000ms, 0716ms total)
T2304 001:033 JLINK_WriteReg(PSP, 0x20000800)  returns 0x00 (0000ms, 0716ms total)
T2304 001:033 JLINK_WriteReg(CFBP, 0x00000000)  returns 0x00 (0000ms, 0716ms total)
T2304 001:033 JLINK_SetBPEx(Addr = 0x20000000, Type = 0xFFFFFFF2)  returns 0x00000002 (0000ms, 0716ms total)
T2304 001:033 JLINK_Go() (0003ms, 0719ms total)
T2304 001:036 JLINK_IsHalted()  returns FALSE (0001ms, 0720ms total)
T2304 001:111 JLINK_IsHalted() -- CPU_ReadMem(2 bytes @ 0x20000000)  returns TRUE (0006ms, 0725ms total)
T2304 001:117 JLINK_ReadReg(R15 (PC))  returns 0x20000000 (0000ms, 0719ms total)
T2304 001:117 JLINK_ClrBPEx(BPHandle = 0x00000002)  returns 0x00 (0000ms, 0719ms total)
T2304 001:117 JLINK_ReadReg(R0)  returns 0x00000000 (0000ms, 0719ms total)
T2304 001:168 JLINK_WriteReg(R0, 0x00000001)  returns 0x00 (0000ms, 0719ms total)
T2304 001:168 JLINK_WriteReg(R1, 0x00B71B00)  returns 0x00 (0000ms, 0719ms total)
T2304 001:168 JLINK_WriteReg(R2, 0x00000001)  returns 0x00 (0000ms, 0719ms total)
T2304 001:168 JLINK_WriteReg(R3, 0x00000000)  returns 0x00 (0000ms, 0719ms total)
T2304 001:168 JLINK_WriteReg(R4, 0x00000000)  returns 0x00 (0000ms, 0719ms total)
T2304 001:168 JLINK_WriteReg(R5, 0x00000000)  returns 0x00 (0000ms, 0719ms total)
T2304 001:168 JLINK_WriteReg(R6, 0x00000000)  returns 0x00 (0000ms, 0719ms total)
T2304 001:168 JLINK_WriteReg(R7, 0x00000000)  returns 0x00 (0000ms, 0719ms total)
T2304 001:168 JLINK_WriteReg(R8, 0x00000000)  returns 0x00 (0000ms, 0719ms total)
T2304 001:168 JLINK_WriteReg(R9, 0x20000160)  returns 0x00 (0000ms, 0719ms total)
T2304 001:168 JLINK_WriteReg(R10, 0x00000000)  returns 0x00 (0000ms, 0719ms total)
T2304 001:168 JLINK_WriteReg(R11, 0x00000000)  returns 0x00 (0000ms, 0719ms total)
T2304 001:168 JLINK_WriteReg(R12, 0x00000000)  returns 0x00 (0001ms, 0720ms total)
T2304 001:169 JLINK_WriteReg(R13 (SP), 0x20000800)  returns 0x00 (0000ms, 0720ms total)
T2304 001:169 JLINK_WriteReg(R14, 0x20000001)  returns 0x00 (0000ms, 0720ms total)
T2304 001:169 JLINK_WriteReg(R15 (PC), 0x2000006A)  returns 0x00 (0000ms, 0720ms total)
T2304 001:169 JLINK_WriteReg(XPSR, 0x01000000)  returns 0x00 (0000ms, 0720ms total)
T2304 001:169 JLINK_WriteReg(MSP, 0x20000800)  returns 0x00 (0000ms, 0720ms total)
T2304 001:169 JLINK_WriteReg(PSP, 0x20000800)  returns 0x00 (0000ms, 0720ms total)
T2304 001:169 JLINK_WriteReg(CFBP, 0x00000000)  returns 0x00 (0000ms, 0720ms total)
T2304 001:169 JLINK_SetBPEx(Addr = 0x20000000, Type = 0xFFFFFFF2)  returns 0x00000003 (0000ms, 0720ms total)
T2304 001:169 JLINK_Go() (0002ms, 0722ms total)
T2304 001:171 JLINK_IsHalted() -- CPU_ReadMem(2 bytes @ 0x20000000)  returns TRUE (0007ms, 0729ms total)
T2304 001:178 JLINK_ReadReg(R15 (PC))  returns 0x20000000 (0000ms, 0722ms total)
T2304 001:178 JLINK_ClrBPEx(BPHandle = 0x00000003)  returns 0x00 (0000ms, 0722ms total)
T2304 001:178 JLINK_ReadReg(R0)  returns 0x00000000 (0000ms, 0722ms total)
T2304 001:191 JLINK_WriteMem(0x20000000, 0x0164 Bytes, ...) - Data: 00 BE 0A E0 0D 78 2D 06 68 40 08 24 40 00 00 D3 ... -- CPU_WriteMem(356 bytes @ 0x20000000)  returns 0x164 (0003ms, 0725ms total)
T2304 001:194 JLINK_WriteReg(R0, 0x08000000)  returns 0x00 (0000ms, 0725ms total)
T2304 001:194 JLINK_WriteReg(R1, 0x00B71B00)  returns 0x00 (0000ms, 0725ms total)
T2304 001:194 JLINK_WriteReg(R2, 0x00000002)  returns 0x00 (0001ms, 0726ms total)
T2304 001:195 JLINK_WriteReg(R3, 0x00000000)  returns 0x00 (0000ms, 0726ms total)
T2304 001:195 JLINK_WriteReg(R4, 0x00000000)  returns 0x00 (0000ms, 0726ms total)
T2304 001:195 JLINK_WriteReg(R5, 0x00000000)  returns 0x00 (0000ms, 0726ms total)
T2304 001:195 JLINK_WriteReg(R6, 0x00000000)  returns 0x00 (0000ms, 0726ms total)
T2304 001:195 JLINK_WriteReg(R7, 0x00000000)  returns 0x00 (0000ms, 0726ms total)
T2304 001:195 JLINK_WriteReg(R8, 0x00000000)  returns 0x00 (0000ms, 0726ms total)
T2304 001:195 JLINK_WriteReg(R9, 0x20000160)  returns 0x00 (0001ms, 0727ms total)
T2304 001:196 JLINK_WriteReg(R10, 0x00000000)  returns 0x00 (0000ms, 0727ms total)
T2304 001:196 JLINK_WriteReg(R11, 0x00000000)  returns 0x00 (0000ms, 0727ms total)
T2304 001:196 JLINK_WriteReg(R12, 0x00000000)  returns 0x00 (0000ms, 0727ms total)
T2304 001:196 JLINK_WriteReg(R13 (SP), 0x20000800)  returns 0x00 (0000ms, 0727ms total)
T2304 001:196 JLINK_WriteReg(R14, 0x20000001)  returns 0x00 (0000ms, 0727ms total)
T2304 001:196 JLINK_WriteReg(R15 (PC), 0x20000038)  returns 0x00 (0000ms, 0727ms total)
T2304 001:196 JLINK_WriteReg(XPSR, 0x01000000)  returns 0x00 (0001ms, 0728ms total)
T2304 001:197 JLINK_WriteReg(MSP, 0x20000800)  returns 0x00 (0000ms, 0728ms total)
T2304 001:197 JLINK_WriteReg(PSP, 0x20000800)  returns 0x00 (0000ms, 0728ms total)
T2304 001:198 JLINK_WriteReg(CFBP, 0x00000000)  returns 0x00 (0000ms, 0728ms total)
T2304 001:198 JLINK_SetBPEx(Addr = 0x20000000, Type = 0xFFFFFFF2) -- CPU_ReadMem(2 bytes @ 0x20000000)  returns 0x00000004 (0002ms, 0730ms total)
T2304 001:200 JLINK_Go() -- CPU_WriteMem(2 bytes @ 0x20000000) (0003ms, 0733ms total)
T2304 001:203 JLINK_IsHalted() -- CPU_ReadMem(2 bytes @ 0x20000000)  returns TRUE (0007ms, 0740ms total)
T2304 001:210 JLINK_ReadReg(R15 (PC))  returns 0x20000000 (0000ms, 0733ms total)
T2304 001:210 JLINK_ClrBPEx(BPHandle = 0x00000004)  returns 0x00 (0000ms, 0733ms total)
T2304 001:210 JLINK_ReadReg(R0)  returns 0x00000000 (0000ms, 0733ms total)
T2304 001:210 JLINK_WriteMem(0x20000164, 0x0400 Bytes, ...) - Data: E8 4B 00 20 C9 01 00 08 E9 41 00 08 F1 2D 00 08 ... -- CPU_WriteMem(1024 bytes @ 0x20000164)  returns 0x400 (0007ms, 0740ms total)
T2304 001:217 JLINK_WriteReg(R0, 0x08000000)  returns 0x00 (0000ms, 0740ms total)
T2304 001:217 JLINK_WriteReg(R1, 0x00000400)  returns 0x00 (0000ms, 0740ms total)
T2304 001:217 JLINK_WriteReg(R2, 0x20000164)  returns 0x00 (0000ms, 0740ms total)
T2304 001:217 JLINK_WriteReg(R3, 0x00000000)  returns 0x00 (0000ms, 0740ms total)
T2304 001:217 JLINK_WriteReg(R4, 0x00000000)  returns 0x00 (0000ms, 0740ms total)
T2304 001:217 JLINK_WriteReg(R5, 0x00000000)  returns 0x00 (0000ms, 0740ms total)
T2304 001:217 JLINK_WriteReg(R6, 0x00000000)  returns 0x00 (0000ms, 0740ms total)
T2304 001:218 JLINK_WriteReg(R7, 0x00000000)  returns 0x00 (0000ms, 0741ms total)
T2304 001:218 JLINK_WriteReg(R8, 0x00000000)  returns 0x00 (0000ms, 0741ms total)
T2304 001:218 JLINK_WriteReg(R9, 0x20000160)  returns 0x00 (0000ms, 0741ms total)
T2304 001:218 JLINK_WriteReg(R10, 0x00000000)  returns 0x00 (0000ms, 0741ms total)
T2304 001:218 JLINK_WriteReg(R11, 0x00000000)  returns 0x00 (0000ms, 0741ms total)
T2304 001:218 JLINK_WriteReg(R12, 0x00000000)  returns 0x00 (0000ms, 0741ms total)
T2304 001:218 JLINK_WriteReg(R13 (SP), 0x20000800)  returns 0x00 (0000ms, 0741ms total)
T2304 001:218 JLINK_WriteReg(R14, 0x20000001)  returns 0x00 (0000ms, 0741ms total)
T2304 001:218 JLINK_WriteReg(R15 (PC), 0x200000F4)  returns 0x00 (0000ms, 0741ms total)
T2304 001:218 JLINK_WriteReg(XPSR, 0x01000000)  returns 0x00 (0000ms, 0741ms total)
T2304 001:218 JLINK_WriteReg(MSP, 0x20000800)  returns 0x00 (0000ms, 0741ms total)
T2304 001:218 JLINK_WriteReg(PSP, 0x20000800)  returns 0x00 (0000ms, 0741ms total)
T2304 001:218 JLINK_WriteReg(CFBP, 0x00000000)  returns 0x00 (0000ms, 0741ms total)
T2304 001:218 JLINK_SetBPEx(Addr = 0x20000000, Type = 0xFFFFFFF2)  returns 0x00000005 (0000ms, 0741ms total)
T2304 001:218 JLINK_Go() (0003ms, 0744ms total)
T2304 001:221 JLINK_IsHalted()  returns FALSE (0001ms, 0745ms total)
T2304 001:298 JLINK_IsHalted() -- CPU_ReadMem(2 bytes @ 0x20000000)  returns TRUE (0007ms, 0751ms total)
T2304 001:305 JLINK_ReadReg(R15 (PC))  returns 0x20000000 (0000ms, 0744ms total)
T2304 001:305 JLINK_ClrBPEx(BPHandle = 0x00000005)  returns 0x00 (0000ms, 0744ms total)
T2304 001:305 JLINK_ReadReg(R0)  returns 0x00000000 (0000ms, 0744ms total)
T2304 001:305 JLINK_WriteMem(0x20000164, 0x0400 Bytes, ...) - Data: 7F F4 F6 AF 10 3A C0 F0 0A 80 10 B5 31 E9 18 50 ... -- CPU_WriteMem(1024 bytes @ 0x20000164)  returns 0x400 (0007ms, 0751ms total)
T2304 001:312 JLINK_WriteReg(R0, 0x08000400)  returns 0x00 (0000ms, 0751ms total)
T2304 001:312 JLINK_WriteReg(R1, 0x00000400)  returns 0x00 (0000ms, 0751ms total)
T2304 001:312 JLINK_WriteReg(R2, 0x20000164)  returns 0x00 (0000ms, 0751ms total)
T2304 001:312 JLINK_WriteReg(R3, 0x00000000)  returns 0x00 (0000ms, 0751ms total)
T2304 001:312 JLINK_WriteReg(R4, 0x00000000)  returns 0x00 (0000ms, 0751ms total)
T2304 001:312 JLINK_WriteReg(R5, 0x00000000)  returns 0x00 (0000ms, 0751ms total)
T2304 001:312 JLINK_WriteReg(R6, 0x00000000)  returns 0x00 (0000ms, 0751ms total)
T2304 001:312 JLINK_WriteReg(R7, 0x00000000)  returns 0x00 (0000ms, 0751ms total)
T2304 001:312 JLINK_WriteReg(R8, 0x00000000)  returns 0x00 (0000ms, 0751ms total)
T2304 001:312 JLINK_WriteReg(R9, 0x20000160)  returns 0x00 (0000ms, 0751ms total)
T2304 001:312 JLINK_WriteReg(R10, 0x00000000)  returns 0x00 (0000ms, 0751ms total)
T2304 001:312 JLINK_WriteReg(R11, 0x00000000)  returns 0x00 (0000ms, 0751ms total)
T2304 001:312 JLINK_WriteReg(R12, 0x00000000)  returns 0x00 (0000ms, 0751ms total)
T2304 001:312 JLINK_WriteReg(R13 (SP), 0x20000800)  returns 0x00 (0000ms, 0751ms total)
T2304 001:312 JLINK_WriteReg(R14, 0x20000001)  returns 0x00 (0000ms, 0751ms total)
T2304 001:312 JLINK_WriteReg(R15 (PC), 0x200000F4)  returns 0x00 (0000ms, 0751ms total)
T2304 001:312 JLINK_WriteReg(XPSR, 0x01000000)  returns 0x00 (0000ms, 0751ms total)
T2304 001:312 JLINK_WriteReg(MSP, 0x20000800)  returns 0x00 (0000ms, 0751ms total)
T2304 001:312 JLINK_WriteReg(PSP, 0x20000800)  returns 0x00 (0000ms, 0751ms total)
T2304 001:312 JLINK_WriteReg(CFBP, 0x00000000)  returns 0x00 (0000ms, 0751ms total)
T2304 001:312 JLINK_SetBPEx(Addr = 0x20000000, Type = 0xFFFFFFF2)  returns 0x00000006 (0000ms, 0751ms total)
T2304 001:312 JLINK_Go() (0003ms, 0754ms total)
T2304 001:315 JLINK_IsHalted()  returns FALSE (0001ms, 0755ms total)
T2304 001:365 JLINK_IsHalted() -- CPU_ReadMem(2 bytes @ 0x20000000)  returns TRUE (0006ms, 0760ms total)
T2304 001:371 JLINK_ReadReg(R15 (PC))  returns 0x20000000 (0000ms, 0754ms total)
T2304 001:371 JLINK_ClrBPEx(BPHandle = 0x00000006)  returns 0x00 (0000ms, 0754ms total)
T2304 001:371 JLINK_ReadReg(R0)  returns 0x00000000 (0000ms, 0754ms total)
T2304 001:371 JLINK_WriteMem(0x20000164, 0x0400 Bytes, ...) - Data: 8C E6 AD A5 00 00 00 00 2D E9 F0 47 26 4E 0F 46 ... -- CPU_WriteMem(1024 bytes @ 0x20000164)  returns 0x400 (0007ms, 0761ms total)
T2304 001:378 JLINK_WriteReg(R0, 0x08000800)  returns 0x00 (0000ms, 0761ms total)
T2304 001:378 JLINK_WriteReg(R1, 0x00000400)  returns 0x00 (0000ms, 0761ms total)
T2304 001:378 JLINK_WriteReg(R2, 0x20000164)  returns 0x00 (0000ms, 0761ms total)
T2304 001:378 JLINK_WriteReg(R3, 0x00000000)  returns 0x00 (0000ms, 0761ms total)
T2304 001:378 JLINK_WriteReg(R4, 0x00000000)  returns 0x00 (0000ms, 0761ms total)
T2304 001:378 JLINK_WriteReg(R5, 0x00000000)  returns 0x00 (0000ms, 0761ms total)
T2304 001:378 JLINK_WriteReg(R6, 0x00000000)  returns 0x00 (0000ms, 0761ms total)
T2304 001:378 JLINK_WriteReg(R7, 0x00000000)  returns 0x00 (0000ms, 0761ms total)
T2304 001:378 JLINK_WriteReg(R8, 0x00000000)  returns 0x00 (0000ms, 0761ms total)
T2304 001:378 JLINK_WriteReg(R9, 0x20000160)  returns 0x00 (0000ms, 0761ms total)
T2304 001:378 JLINK_WriteReg(R10, 0x00000000)  returns 0x00 (0000ms, 0761ms total)
T2304 001:378 JLINK_WriteReg(R11, 0x00000000)  returns 0x00 (0000ms, 0761ms total)
T2304 001:378 JLINK_WriteReg(R12, 0x00000000)  returns 0x00 (0000ms, 0761ms total)
T2304 001:378 JLINK_WriteReg(R13 (SP), 0x20000800)  returns 0x00 (0000ms, 0761ms total)
T2304 001:378 JLINK_WriteReg(R14, 0x20000001)  returns 0x00 (0000ms, 0761ms total)
T2304 001:378 JLINK_WriteReg(R15 (PC), 0x200000F4)  returns 0x00 (0000ms, 0761ms total)
T2304 001:378 JLINK_WriteReg(XPSR, 0x01000000)  returns 0x00 (0000ms, 0761ms total)
T2304 001:378 JLINK_WriteReg(MSP, 0x20000800)  returns 0x00 (0000ms, 0761ms total)
T2304 001:378 JLINK_WriteReg(PSP, 0x20000800)  returns 0x00 (0000ms, 0761ms total)
T2304 001:378 JLINK_WriteReg(CFBP, 0x00000000)  returns 0x00 (0000ms, 0761ms total)
T2304 001:378 JLINK_SetBPEx(Addr = 0x20000000, Type = 0xFFFFFFF2)  returns 0x00000007 (0000ms, 0761ms total)
T2304 001:378 JLINK_Go() (0003ms, 0764ms total)
T2304 001:381 JLINK_IsHalted()  returns FALSE (0001ms, 0765ms total)
T2304 001:431 JLINK_IsHalted() -- CPU_ReadMem(2 bytes @ 0x20000000)  returns TRUE (0006ms, 0770ms total)
T2304 001:437 JLINK_ReadReg(R15 (PC))  returns 0x20000000 (0000ms, 0764ms total)
T2304 001:437 JLINK_ClrBPEx(BPHandle = 0x00000007)  returns 0x00 (0000ms, 0764ms total)
T2304 001:437 JLINK_ReadReg(R0)  returns 0x00000000 (0000ms, 0764ms total)
T2304 001:437 JLINK_WriteMem(0x20000164, 0x0400 Bytes, ...) - Data: 06 98 53 44 02 FB 05 02 02 F0 A0 FC 0E 98 02 F0 ... -- CPU_WriteMem(1024 bytes @ 0x20000164)  returns 0x400 (0007ms, 0771ms total)
T2304 001:444 JLINK_WriteReg(R0, 0x08000C00)  returns 0x00 (0000ms, 0771ms total)
T2304 001:444 JLINK_WriteReg(R1, 0x00000400)  returns 0x00 (0000ms, 0771ms total)
T2304 001:444 JLINK_WriteReg(R2, 0x20000164)  returns 0x00 (0000ms, 0771ms total)
T2304 001:444 JLINK_WriteReg(R3, 0x00000000)  returns 0x00 (0000ms, 0771ms total)
T2304 001:444 JLINK_WriteReg(R4, 0x00000000)  returns 0x00 (0000ms, 0771ms total)
T2304 001:444 JLINK_WriteReg(R5, 0x00000000)  returns 0x00 (0000ms, 0771ms total)
T2304 001:444 JLINK_WriteReg(R6, 0x00000000)  returns 0x00 (0000ms, 0771ms total)
T2304 001:444 JLINK_WriteReg(R7, 0x00000000)  returns 0x00 (0000ms, 0771ms total)
T2304 001:444 JLINK_WriteReg(R8, 0x00000000)  returns 0x00 (0000ms, 0771ms total)
T2304 001:444 JLINK_WriteReg(R9, 0x20000160)  returns 0x00 (0000ms, 0771ms total)
T2304 001:444 JLINK_WriteReg(R10, 0x00000000)  returns 0x00 (0000ms, 0771ms total)
T2304 001:444 JLINK_WriteReg(R11, 0x00000000)  returns 0x00 (0000ms, 0771ms total)
T2304 001:444 JLINK_WriteReg(R12, 0x00000000)  returns 0x00 (0000ms, 0771ms total)
T2304 001:444 JLINK_WriteReg(R13 (SP), 0x20000800)  returns 0x00 (0000ms, 0771ms total)
T2304 001:444 JLINK_WriteReg(R14, 0x20000001)  returns 0x00 (0000ms, 0771ms total)
T2304 001:444 JLINK_WriteReg(R15 (PC), 0x200000F4)  returns 0x00 (0000ms, 0771ms total)
T2304 001:444 JLINK_WriteReg(XPSR, 0x01000000)  returns 0x00 (0000ms, 0771ms total)
T2304 001:444 JLINK_WriteReg(MSP, 0x20000800)  returns 0x00 (0000ms, 0771ms total)
T2304 001:444 JLINK_WriteReg(PSP, 0x20000800)  returns 0x00 (0000ms, 0771ms total)
T2304 001:444 JLINK_WriteReg(CFBP, 0x00000000)  returns 0x00 (0000ms, 0771ms total)
T2304 001:444 JLINK_SetBPEx(Addr = 0x20000000, Type = 0xFFFFFFF2)  returns 0x00000008 (0000ms, 0771ms total)
T2304 001:444 JLINK_Go() (0003ms, 0774ms total)
T2304 001:447 JLINK_IsHalted()  returns FALSE (0001ms, 0775ms total)
T2304 001:498 JLINK_IsHalted() -- CPU_ReadMem(2 bytes @ 0x20000000)  returns TRUE (0006ms, 0780ms total)
T2304 001:504 JLINK_ReadReg(R15 (PC))  returns 0x20000000 (0000ms, 0774ms total)
T2304 001:504 JLINK_ClrBPEx(BPHandle = 0x00000008)  returns 0x00 (0000ms, 0774ms total)
T2304 001:504 JLINK_ReadReg(R0)  returns 0x00000000 (0000ms, 0774ms total)
T2304 001:504 JLINK_WriteMem(0x20000164, 0x0400 Bytes, ...) - Data: 6F F0 00 40 27 70 49 1E 01 E0 00 24 09 1B C9 B2 ... -- CPU_WriteMem(1024 bytes @ 0x20000164)  returns 0x400 (0007ms, 0781ms total)
T2304 001:511 JLINK_WriteReg(R0, 0x08001000)  returns 0x00 (0000ms, 0781ms total)
T2304 001:511 JLINK_WriteReg(R1, 0x00000400)  returns 0x00 (0000ms, 0781ms total)
T2304 001:511 JLINK_WriteReg(R2, 0x20000164)  returns 0x00 (0000ms, 0781ms total)
T2304 001:511 JLINK_WriteReg(R3, 0x00000000)  returns 0x00 (0000ms, 0781ms total)
T2304 001:511 JLINK_WriteReg(R4, 0x00000000)  returns 0x00 (0000ms, 0781ms total)
T2304 001:511 JLINK_WriteReg(R5, 0x00000000)  returns 0x00 (0000ms, 0781ms total)
T2304 001:511 JLINK_WriteReg(R6, 0x00000000)  returns 0x00 (0000ms, 0781ms total)
T2304 001:511 JLINK_WriteReg(R7, 0x00000000)  returns 0x00 (0000ms, 0781ms total)
T2304 001:511 JLINK_WriteReg(R8, 0x00000000)  returns 0x00 (0000ms, 0781ms total)
T2304 001:511 JLINK_WriteReg(R9, 0x20000160)  returns 0x00 (0000ms, 0781ms total)
T2304 001:511 JLINK_WriteReg(R10, 0x00000000)  returns 0x00 (0000ms, 0781ms total)
T2304 001:511 JLINK_WriteReg(R11, 0x00000000)  returns 0x00 (0000ms, 0781ms total)
T2304 001:511 JLINK_WriteReg(R12, 0x00000000)  returns 0x00 (0000ms, 0781ms total)
T2304 001:511 JLINK_WriteReg(R13 (SP), 0x20000800)  returns 0x00 (0000ms, 0781ms total)
T2304 001:511 JLINK_WriteReg(R14, 0x20000001)  returns 0x00 (0000ms, 0781ms total)
T2304 001:511 JLINK_WriteReg(R15 (PC), 0x200000F4)  returns 0x00 (0000ms, 0781ms total)
T2304 001:511 JLINK_WriteReg(XPSR, 0x01000000)  returns 0x00 (0000ms, 0781ms total)
T2304 001:511 JLINK_WriteReg(MSP, 0x20000800)  returns 0x00 (0000ms, 0781ms total)
T2304 001:511 JLINK_WriteReg(PSP, 0x20000800)  returns 0x00 (0000ms, 0781ms total)
T2304 001:511 JLINK_WriteReg(CFBP, 0x00000000)  returns 0x00 (0000ms, 0781ms total)
T2304 001:511 JLINK_SetBPEx(Addr = 0x20000000, Type = 0xFFFFFFF2)  returns 0x00000009 (0000ms, 0781ms total)
T2304 001:511 JLINK_Go() (0003ms, 0784ms total)
T2304 001:514 JLINK_IsHalted()  returns FALSE (0001ms, 0785ms total)
T2304 001:565 JLINK_IsHalted() -- CPU_ReadMem(2 bytes @ 0x20000000)  returns TRUE (0006ms, 0790ms total)
T2304 001:571 JLINK_ReadReg(R15 (PC))  returns 0x20000000 (0000ms, 0784ms total)
T2304 001:571 JLINK_ClrBPEx(BPHandle = 0x00000009)  returns 0x00 (0000ms, 0784ms total)
T2304 001:571 JLINK_ReadReg(R0)  returns 0x00000000 (0000ms, 0784ms total)
T2304 001:572 JLINK_WriteMem(0x20000164, 0x0400 Bytes, ...) - Data: 68 46 04 F0 4B FA 15 E0 32 46 29 46 38 46 01 F0 ... -- CPU_WriteMem(1024 bytes @ 0x20000164)  returns 0x400 (0006ms, 0790ms total)
T2304 001:578 JLINK_WriteReg(R0, 0x08001400)  returns 0x00 (0000ms, 0790ms total)
T2304 001:578 JLINK_WriteReg(R1, 0x00000400)  returns 0x00 (0000ms, 0790ms total)
T2304 001:578 JLINK_WriteReg(R2, 0x20000164)  returns 0x00 (0000ms, 0790ms total)
T2304 001:578 JLINK_WriteReg(R3, 0x00000000)  returns 0x00 (0000ms, 0790ms total)
T2304 001:578 JLINK_WriteReg(R4, 0x00000000)  returns 0x00 (0000ms, 0790ms total)
T2304 001:578 JLINK_WriteReg(R5, 0x00000000)  returns 0x00 (0000ms, 0790ms total)
T2304 001:578 JLINK_WriteReg(R6, 0x00000000)  returns 0x00 (0000ms, 0790ms total)
T2304 001:578 JLINK_WriteReg(R7, 0x00000000)  returns 0x00 (0000ms, 0790ms total)
T2304 001:578 JLINK_WriteReg(R8, 0x00000000)  returns 0x00 (0000ms, 0790ms total)
T2304 001:578 JLINK_WriteReg(R9, 0x20000160)  returns 0x00 (0000ms, 0790ms total)
T2304 001:578 JLINK_WriteReg(R10, 0x00000000)  returns 0x00 (0000ms, 0790ms total)
T2304 001:578 JLINK_WriteReg(R11, 0x00000000)  returns 0x00 (0000ms, 0790ms total)
T2304 001:579 JLINK_WriteReg(R12, 0x00000000)  returns 0x00 (0000ms, 0791ms total)
T2304 001:579 JLINK_WriteReg(R13 (SP), 0x20000800)  returns 0x00 (0000ms, 0791ms total)
T2304 001:579 JLINK_WriteReg(R14, 0x20000001)  returns 0x00 (0000ms, 0791ms total)
T2304 001:579 JLINK_WriteReg(R15 (PC), 0x200000F4)  returns 0x00 (0000ms, 0791ms total)
T2304 001:579 JLINK_WriteReg(XPSR, 0x01000000)  returns 0x00 (0000ms, 0791ms total)
T2304 001:579 JLINK_WriteReg(MSP, 0x20000800)  returns 0x00 (0000ms, 0791ms total)
T2304 001:579 JLINK_WriteReg(PSP, 0x20000800)  returns 0x00 (0000ms, 0791ms total)
T2304 001:579 JLINK_WriteReg(CFBP, 0x00000000)  returns 0x00 (0000ms, 0791ms total)
T2304 001:579 JLINK_SetBPEx(Addr = 0x20000000, Type = 0xFFFFFFF2)  returns 0x0000000A (0000ms, 0791ms total)
T2304 001:579 JLINK_Go() (0002ms, 0793ms total)
T2304 001:581 JLINK_IsHalted()  returns FALSE (0003ms, 0796ms total)
T2304 001:601 JLINK_IsHalted()  returns FALSE (0001ms, 0794ms total)
T2304 001:603 JLINK_IsHalted()  returns FALSE (0001ms, 0794ms total)
T2304 001:605 JLINK_IsHalted()  returns FALSE (0001ms, 0794ms total)
T2304 001:607 JLINK_IsHalted()  returns FALSE (0001ms, 0794ms total)
T2304 001:609 JLINK_IsHalted()  returns FALSE (0001ms, 0794ms total)
T2304 001:611 JLINK_IsHalted()  returns FALSE (0001ms, 0794ms total)
T2304 001:613 JLINK_IsHalted() -- CPU_ReadMem(2 bytes @ 0x20000000)  returns TRUE (0006ms, 0799ms total)
T2304 001:619 JLINK_ReadReg(R15 (PC))  returns 0x20000000 (0000ms, 0793ms total)
T2304 001:619 JLINK_ClrBPEx(BPHandle = 0x0000000A)  returns 0x00 (0000ms, 0793ms total)
T2304 001:619 JLINK_ReadReg(R0)  returns 0x00000000 (0000ms, 0793ms total)
T2304 001:619 JLINK_WriteMem(0x20000164, 0x0400 Bytes, ...) - Data: 01 F0 44 FF 05 E0 01 F0 15 FF 05 46 20 46 01 F0 ... -- CPU_WriteMem(1024 bytes @ 0x20000164)  returns 0x400 (0007ms, 0800ms total)
T2304 001:626 JLINK_WriteReg(R0, 0x08001800)  returns 0x00 (0000ms, 0800ms total)
T2304 001:626 JLINK_WriteReg(R1, 0x00000400)  returns 0x00 (0000ms, 0800ms total)
T2304 001:626 JLINK_WriteReg(R2, 0x20000164)  returns 0x00 (0000ms, 0800ms total)
T2304 001:626 JLINK_WriteReg(R3, 0x00000000)  returns 0x00 (0000ms, 0800ms total)
T2304 001:626 JLINK_WriteReg(R4, 0x00000000)  returns 0x00 (0000ms, 0800ms total)
T2304 001:626 JLINK_WriteReg(R5, 0x00000000)  returns 0x00 (0000ms, 0800ms total)
T2304 001:626 JLINK_WriteReg(R6, 0x00000000)  returns 0x00 (0000ms, 0800ms total)
T2304 001:626 JLINK_WriteReg(R7, 0x00000000)  returns 0x00 (0000ms, 0800ms total)
T2304 001:626 JLINK_WriteReg(R8, 0x00000000)  returns 0x00 (0000ms, 0800ms total)
T2304 001:626 JLINK_WriteReg(R9, 0x20000160)  returns 0x00 (0000ms, 0800ms total)
T2304 001:626 JLINK_WriteReg(R10, 0x00000000)  returns 0x00 (0000ms, 0800ms total)
T2304 001:626 JLINK_WriteReg(R11, 0x00000000)  returns 0x00 (0000ms, 0800ms total)
T2304 001:626 JLINK_WriteReg(R12, 0x00000000)  returns 0x00 (0000ms, 0800ms total)
T2304 001:626 JLINK_WriteReg(R13 (SP), 0x20000800)  returns 0x00 (0000ms, 0800ms total)
T2304 001:626 JLINK_WriteReg(R14, 0x20000001)  returns 0x00 (0000ms, 0800ms total)
T2304 001:626 JLINK_WriteReg(R15 (PC), 0x200000F4)  returns 0x00 (0000ms, 0800ms total)
T2304 001:626 JLINK_WriteReg(XPSR, 0x01000000)  returns 0x00 (0000ms, 0800ms total)
T2304 001:626 JLINK_WriteReg(MSP, 0x20000800)  returns 0x00 (0000ms, 0800ms total)
T2304 001:626 JLINK_WriteReg(PSP, 0x20000800)  returns 0x00 (0000ms, 0800ms total)
T2304 001:626 JLINK_WriteReg(CFBP, 0x00000000)  returns 0x00 (0000ms, 0800ms total)
T2304 001:626 JLINK_SetBPEx(Addr = 0x20000000, Type = 0xFFFFFFF2)  returns 0x0000000B (0000ms, 0800ms total)
T2304 001:626 JLINK_Go() (0003ms, 0803ms total)
T2304 001:629 JLINK_IsHalted()  returns FALSE (0001ms, 0804ms total)
T2304 001:633 JLINK_IsHalted()  returns FALSE (0001ms, 0804ms total)
T2304 001:635 JLINK_IsHalted()  returns FALSE (0001ms, 0804ms total)
T2304 001:637 JLINK_IsHalted()  returns FALSE (0001ms, 0804ms total)
T2304 001:639 JLINK_IsHalted()  returns FALSE (0001ms, 0804ms total)
T2304 001:641 JLINK_IsHalted()  returns FALSE (0001ms, 0804ms total)
T2304 001:643 JLINK_IsHalted()  returns FALSE (0001ms, 0804ms total)
T2304 001:645 JLINK_IsHalted()  returns FALSE (0001ms, 0804ms total)
T2304 001:647 JLINK_IsHalted()  returns FALSE (0001ms, 0804ms total)
T2304 001:649 JLINK_IsHalted()  returns FALSE (0001ms, 0804ms total)
T2304 001:651 JLINK_IsHalted()  returns FALSE (0001ms, 0804ms total)
T2304 001:653 JLINK_IsHalted()  returns FALSE (0001ms, 0804ms total)
T2304 001:655 JLINK_IsHalted()  returns FALSE (0001ms, 0804ms total)
T2304 001:657 JLINK_IsHalted()  returns FALSE (0001ms, 0804ms total)
T2304 001:659 JLINK_IsHalted() -- CPU_ReadMem(2 bytes @ 0x20000000)  returns TRUE (0006ms, 0809ms total)
T2304 001:665 JLINK_ReadReg(R15 (PC))  returns 0x20000000 (0000ms, 0803ms total)
T2304 001:665 JLINK_ClrBPEx(BPHandle = 0x0000000B)  returns 0x00 (0000ms, 0803ms total)
T2304 001:665 JLINK_ReadReg(R0)  returns 0x00000000 (0000ms, 0803ms total)
T2304 001:666 JLINK_WriteMem(0x20000164, 0x0400 Bytes, ...) - Data: 28 68 40 7C 57 F8 20 00 C1 68 8A 6A 08 21 90 47 ... -- CPU_WriteMem(1024 bytes @ 0x20000164)  returns 0x400 (0006ms, 0809ms total)
T2304 001:672 JLINK_WriteReg(R0, 0x08001C00)  returns 0x00 (0000ms, 0809ms total)
T2304 001:672 JLINK_WriteReg(R1, 0x00000400)  returns 0x00 (0000ms, 0809ms total)
T2304 001:672 JLINK_WriteReg(R2, 0x20000164)  returns 0x00 (0000ms, 0809ms total)
T2304 001:672 JLINK_WriteReg(R3, 0x00000000)  returns 0x00 (0000ms, 0809ms total)
T2304 001:672 JLINK_WriteReg(R4, 0x00000000)  returns 0x00 (0000ms, 0809ms total)
T2304 001:672 JLINK_WriteReg(R5, 0x00000000)  returns 0x00 (0000ms, 0809ms total)
T2304 001:672 JLINK_WriteReg(R6, 0x00000000)  returns 0x00 (0000ms, 0809ms total)
T2304 001:672 JLINK_WriteReg(R7, 0x00000000)  returns 0x00 (0000ms, 0809ms total)
T2304 001:672 JLINK_WriteReg(R8, 0x00000000)  returns 0x00 (0000ms, 0809ms total)
T2304 001:672 JLINK_WriteReg(R9, 0x20000160)  returns 0x00 (0000ms, 0809ms total)
T2304 001:672 JLINK_WriteReg(R10, 0x00000000)  returns 0x00 (0000ms, 0809ms total)
T2304 001:673 JLINK_WriteReg(R11, 0x00000000)  returns 0x00 (0000ms, 0810ms total)
T2304 001:673 JLINK_WriteReg(R12, 0x00000000)  returns 0x00 (0000ms, 0810ms total)
T2304 001:673 JLINK_WriteReg(R13 (SP), 0x20000800)  returns 0x00 (0000ms, 0810ms total)
T2304 001:673 JLINK_WriteReg(R14, 0x20000001)  returns 0x00 (0000ms, 0810ms total)
T2304 001:673 JLINK_WriteReg(R15 (PC), 0x200000F4)  returns 0x00 (0000ms, 0810ms total)
T2304 001:673 JLINK_WriteReg(XPSR, 0x01000000)  returns 0x00 (0000ms, 0810ms total)
T2304 001:673 JLINK_WriteReg(MSP, 0x20000800)  returns 0x00 (0000ms, 0810ms total)
T2304 001:673 JLINK_WriteReg(PSP, 0x20000800)  returns 0x00 (0000ms, 0810ms total)
T2304 001:673 JLINK_WriteReg(CFBP, 0x00000000)  returns 0x00 (0000ms, 0810ms total)
T2304 001:673 JLINK_SetBPEx(Addr = 0x20000000, Type = 0xFFFFFFF2)  returns 0x0000000C (0000ms, 0810ms total)
T2304 001:673 JLINK_Go() (0002ms, 0812ms total)
T2304 001:675 JLINK_IsHalted()  returns FALSE (0001ms, 0813ms total)
T2304 001:679 JLINK_IsHalted()  returns FALSE (0001ms, 0813ms total)
T2304 001:681 JLINK_IsHalted()  returns FALSE (0001ms, 0813ms total)
T2304 001:683 JLINK_IsHalted()  returns FALSE (0001ms, 0813ms total)
T2304 001:685 JLINK_IsHalted()  returns FALSE (0001ms, 0813ms total)
T2304 001:687 JLINK_IsHalted()  returns FALSE (0001ms, 0813ms total)
T2304 001:689 JLINK_IsHalted()  returns FALSE (0001ms, 0813ms total)
T2304 001:693 JLINK_IsHalted()  returns FALSE (0001ms, 0813ms total)
T2304 001:695 JLINK_IsHalted()  returns FALSE (0001ms, 0813ms total)
T2304 001:697 JLINK_IsHalted()  returns FALSE (0001ms, 0813ms total)
T2304 001:699 JLINK_IsHalted()  returns FALSE (0001ms, 0813ms total)
T2304 001:701 JLINK_IsHalted()  returns FALSE (0001ms, 0813ms total)
T2304 001:703 JLINK_IsHalted()  returns FALSE (0001ms, 0813ms total)
T2304 001:705 JLINK_IsHalted()  returns FALSE (0001ms, 0813ms total)
T2304 001:707 JLINK_IsHalted() -- CPU_ReadMem(2 bytes @ 0x20000000)  returns TRUE (0006ms, 0818ms total)
T2304 001:713 JLINK_ReadReg(R15 (PC))  returns 0x20000000 (0000ms, 0812ms total)
T2304 001:713 JLINK_ClrBPEx(BPHandle = 0x0000000C)  returns 0x00 (0000ms, 0812ms total)
T2304 001:713 JLINK_ReadReg(R0)  returns 0x00000000 (0000ms, 0812ms total)
T2304 001:714 JLINK_WriteMem(0x20000164, 0x0400 Bytes, ...) - Data: B1 F9 2A 20 48 85 10 46 70 47 00 00 E8 00 00 20 ... -- CPU_WriteMem(1024 bytes @ 0x20000164)  returns 0x400 (0006ms, 0818ms total)
T2304 001:721 JLINK_WriteReg(R0, 0x08002000)  returns 0x00 (0000ms, 0819ms total)
T2304 001:721 JLINK_WriteReg(R1, 0x00000400)  returns 0x00 (0000ms, 0819ms total)
T2304 001:721 JLINK_WriteReg(R2, 0x20000164)  returns 0x00 (0000ms, 0819ms total)
T2304 001:721 JLINK_WriteReg(R3, 0x00000000)  returns 0x00 (0000ms, 0819ms total)
T2304 001:721 JLINK_WriteReg(R4, 0x00000000)  returns 0x00 (0000ms, 0819ms total)
T2304 001:721 JLINK_WriteReg(R5, 0x00000000)  returns 0x00 (0000ms, 0819ms total)
T2304 001:721 JLINK_WriteReg(R6, 0x00000000)  returns 0x00 (0000ms, 0819ms total)
T2304 001:721 JLINK_WriteReg(R7, 0x00000000)  returns 0x00 (0000ms, 0819ms total)
T2304 001:721 JLINK_WriteReg(R8, 0x00000000)  returns 0x00 (0000ms, 0819ms total)
T2304 001:721 JLINK_WriteReg(R9, 0x20000160)  returns 0x00 (0000ms, 0819ms total)
T2304 001:721 JLINK_WriteReg(R10, 0x00000000)  returns 0x00 (0000ms, 0819ms total)
T2304 001:721 JLINK_WriteReg(R11, 0x00000000)  returns 0x00 (0001ms, 0820ms total)
T2304 001:722 JLINK_WriteReg(R12, 0x00000000)  returns 0x00 (0000ms, 0820ms total)
T2304 001:722 JLINK_WriteReg(R13 (SP), 0x20000800)  returns 0x00 (0000ms, 0820ms total)
T2304 001:722 JLINK_WriteReg(R14, 0x20000001)  returns 0x00 (0000ms, 0820ms total)
T2304 001:722 JLINK_WriteReg(R15 (PC), 0x200000F4)  returns 0x00 (0000ms, 0820ms total)
T2304 001:722 JLINK_WriteReg(XPSR, 0x01000000)  returns 0x00 (0000ms, 0820ms total)
T2304 001:722 JLINK_WriteReg(MSP, 0x20000800)  returns 0x00 (0000ms, 0820ms total)
T2304 001:722 JLINK_WriteReg(PSP, 0x20000800)  returns 0x00 (0000ms, 0820ms total)
T2304 001:722 JLINK_WriteReg(CFBP, 0x00000000)  returns 0x00 (0000ms, 0820ms total)
T2304 001:722 JLINK_SetBPEx(Addr = 0x20000000, Type = 0xFFFFFFF2)  returns 0x0000000D (0000ms, 0820ms total)
T2304 001:722 JLINK_Go() (0003ms, 0823ms total)
T2304 001:725 JLINK_IsHalted()  returns FALSE (0001ms, 0824ms total)
T2304 001:731 JLINK_IsHalted()  returns FALSE (0001ms, 0824ms total)
T2304 001:733 JLINK_IsHalted()  returns FALSE (0001ms, 0824ms total)
T2304 001:735 JLINK_IsHalted()  returns FALSE (0002ms, 0825ms total)
T2304 001:739 JLINK_IsHalted()  returns FALSE (0001ms, 0824ms total)
T2304 001:741 JLINK_IsHalted()  returns FALSE (0001ms, 0824ms total)
T2304 001:743 JLINK_IsHalted()  returns FALSE (0001ms, 0824ms total)
T2304 001:745 JLINK_IsHalted()  returns FALSE (0001ms, 0824ms total)
T2304 001:747 JLINK_IsHalted()  returns FALSE (0001ms, 0824ms total)
T2304 001:749 JLINK_IsHalted()  returns FALSE (0001ms, 0824ms total)
T2304 001:751 JLINK_IsHalted()  returns FALSE (0001ms, 0824ms total)
T2304 001:753 JLINK_IsHalted()  returns FALSE (0001ms, 0824ms total)
T2304 001:755 JLINK_IsHalted() -- CPU_ReadMem(2 bytes @ 0x20000000)  returns TRUE (0006ms, 0829ms total)
T2304 001:761 JLINK_ReadReg(R15 (PC))  returns 0x20000000 (0000ms, 0823ms total)
T2304 001:761 JLINK_ClrBPEx(BPHandle = 0x0000000D)  returns 0x00 (0000ms, 0823ms total)
T2304 001:761 JLINK_ReadReg(R0)  returns 0x00000000 (0000ms, 0823ms total)
T2304 001:762 JLINK_WriteMem(0x20000164, 0x0400 Bytes, ...) - Data: 1C D0 10 F8 04 4B 49 1E 04 F0 01 04 42 EA C4 02 ... -- CPU_WriteMem(1024 bytes @ 0x20000164)  returns 0x400 (0007ms, 0830ms total)
T2304 001:769 JLINK_WriteReg(R0, 0x08002400)  returns 0x00 (0000ms, 0830ms total)
T2304 001:769 JLINK_WriteReg(R1, 0x00000400)  returns 0x00 (0000ms, 0830ms total)
T2304 001:769 JLINK_WriteReg(R2, 0x20000164)  returns 0x00 (0000ms, 0830ms total)
T2304 001:769 JLINK_WriteReg(R3, 0x00000000)  returns 0x00 (0000ms, 0830ms total)
T2304 001:769 JLINK_WriteReg(R4, 0x00000000)  returns 0x00 (0000ms, 0830ms total)
T2304 001:770 JLINK_WriteReg(R5, 0x00000000)  returns 0x00 (0000ms, 0830ms total)
T2304 001:770 JLINK_WriteReg(R6, 0x00000000)  returns 0x00 (0000ms, 0830ms total)
T2304 001:770 JLINK_WriteReg(R7, 0x00000000)  returns 0x00 (0000ms, 0830ms total)
T2304 001:770 JLINK_WriteReg(R8, 0x00000000)  returns 0x00 (0000ms, 0830ms total)
T2304 001:770 JLINK_WriteReg(R9, 0x20000160)  returns 0x00 (0000ms, 0830ms total)
T2304 001:770 JLINK_WriteReg(R10, 0x00000000)  returns 0x00 (0000ms, 0830ms total)
T2304 001:770 JLINK_WriteReg(R11, 0x00000000)  returns 0x00 (0000ms, 0830ms total)
T2304 001:770 JLINK_WriteReg(R12, 0x00000000)  returns 0x00 (0000ms, 0830ms total)
T2304 001:770 JLINK_WriteReg(R13 (SP), 0x20000800)  returns 0x00 (0000ms, 0830ms total)
T2304 001:770 JLINK_WriteReg(R14, 0x20000001)  returns 0x00 (0000ms, 0830ms total)
T2304 001:770 JLINK_WriteReg(R15 (PC), 0x200000F4)  returns 0x00 (0000ms, 0830ms total)
T2304 001:770 JLINK_WriteReg(XPSR, 0x01000000)  returns 0x00 (0000ms, 0830ms total)
T2304 001:770 JLINK_WriteReg(MSP, 0x20000800)  returns 0x00 (0000ms, 0830ms total)
T2304 001:770 JLINK_WriteReg(PSP, 0x20000800)  returns 0x00 (0001ms, 0831ms total)
T2304 001:771 JLINK_WriteReg(CFBP, 0x00000000)  returns 0x00 (0000ms, 0831ms total)
T2304 001:771 JLINK_SetBPEx(Addr = 0x20000000, Type = 0xFFFFFFF2)  returns 0x0000000E (0000ms, 0831ms total)
T2304 001:771 JLINK_Go() (0002ms, 0833ms total)
T2304 001:773 JLINK_IsHalted()  returns FALSE (0001ms, 0834ms total)
T2304 001:779 JLINK_IsHalted()  returns FALSE (0001ms, 0834ms total)
T2304 001:781 JLINK_IsHalted()  returns FALSE (0001ms, 0834ms total)
T2304 001:783 JLINK_IsHalted()  returns FALSE (0001ms, 0834ms total)
T2304 001:785 JLINK_IsHalted()  returns FALSE (0001ms, 0834ms total)
T2304 001:787 JLINK_IsHalted()  returns FALSE (0002ms, 0835ms total)
T2304 001:790 JLINK_IsHalted()  returns FALSE (0001ms, 0834ms total)
T2304 001:792 JLINK_IsHalted()  returns FALSE (0001ms, 0834ms total)
T2304 001:794 JLINK_IsHalted()  returns FALSE (0001ms, 0834ms total)
T2304 001:796 JLINK_IsHalted()  returns FALSE (0001ms, 0834ms total)
T2304 001:799 JLINK_IsHalted()  returns FALSE (0001ms, 0834ms total)
T2304 001:805 JLINK_IsHalted() -- CPU_ReadMem(2 bytes @ 0x20000000)  returns TRUE (0006ms, 0839ms total)
T2304 001:811 JLINK_ReadReg(R15 (PC))  returns 0x20000000 (0000ms, 0833ms total)
T2304 001:811 JLINK_ClrBPEx(BPHandle = 0x0000000E)  returns 0x00 (0000ms, 0833ms total)
T2304 001:811 JLINK_ReadReg(R0)  returns 0x00000000 (0000ms, 0833ms total)
T2304 001:812 JLINK_WriteMem(0x20000164, 0x0400 Bytes, ...) - Data: A8 F1 01 00 5F EA 00 08 F6 D1 31 48 C0 69 80 B3 ... -- CPU_WriteMem(1024 bytes @ 0x20000164)  returns 0x400 (0006ms, 0839ms total)
T2304 001:818 JLINK_WriteReg(R0, 0x08002800)  returns 0x00 (0000ms, 0839ms total)
T2304 001:818 JLINK_WriteReg(R1, 0x00000400)  returns 0x00 (0000ms, 0839ms total)
T2304 001:818 JLINK_WriteReg(R2, 0x20000164)  returns 0x00 (0000ms, 0839ms total)
T2304 001:818 JLINK_WriteReg(R3, 0x00000000)  returns 0x00 (0000ms, 0839ms total)
T2304 001:818 JLINK_WriteReg(R4, 0x00000000)  returns 0x00 (0000ms, 0839ms total)
T2304 001:818 JLINK_WriteReg(R5, 0x00000000)  returns 0x00 (0000ms, 0839ms total)
T2304 001:818 JLINK_WriteReg(R6, 0x00000000)  returns 0x00 (0001ms, 0840ms total)
T2304 001:819 JLINK_WriteReg(R7, 0x00000000)  returns 0x00 (0000ms, 0840ms total)
T2304 001:819 JLINK_WriteReg(R8, 0x00000000)  returns 0x00 (0000ms, 0840ms total)
T2304 001:819 JLINK_WriteReg(R9, 0x20000160)  returns 0x00 (0000ms, 0840ms total)
T2304 001:819 JLINK_WriteReg(R10, 0x00000000)  returns 0x00 (0000ms, 0840ms total)
T2304 001:819 JLINK_WriteReg(R11, 0x00000000)  returns 0x00 (0000ms, 0840ms total)
T2304 001:819 JLINK_WriteReg(R12, 0x00000000)  returns 0x00 (0000ms, 0840ms total)
T2304 001:819 JLINK_WriteReg(R13 (SP), 0x20000800)  returns 0x00 (0000ms, 0840ms total)
T2304 001:819 JLINK_WriteReg(R14, 0x20000001)  returns 0x00 (0000ms, 0840ms total)
T2304 001:819 JLINK_WriteReg(R15 (PC), 0x200000F4)  returns 0x00 (0000ms, 0840ms total)
T2304 001:819 JLINK_WriteReg(XPSR, 0x01000000)  returns 0x00 (0000ms, 0840ms total)
T2304 001:819 JLINK_WriteReg(MSP, 0x20000800)  returns 0x00 (0000ms, 0840ms total)
T2304 001:819 JLINK_WriteReg(PSP, 0x20000800)  returns 0x00 (0000ms, 0840ms total)
T2304 001:819 JLINK_WriteReg(CFBP, 0x00000000)  returns 0x00 (0000ms, 0840ms total)
T2304 001:819 JLINK_SetBPEx(Addr = 0x20000000, Type = 0xFFFFFFF2)  returns 0x0000000F (0000ms, 0840ms total)
T2304 001:819 JLINK_Go() (0002ms, 0842ms total)
T2304 001:821 JLINK_IsHalted()  returns FALSE (0001ms, 0843ms total)
T2304 001:823 JLINK_IsHalted()  returns FALSE (0000ms, 0842ms total)
T2304 001:824 JLINK_IsHalted()  returns FALSE (0000ms, 0842ms total)
T2304 001:825 JLINK_IsHalted()  returns FALSE (0000ms, 0842ms total)
T2304 001:826 JLINK_IsHalted()  returns FALSE (0000ms, 0842ms total)
T2304 001:827 JLINK_IsHalted()  returns FALSE (0000ms, 0842ms total)
T2304 001:828 JLINK_IsHalted()  returns FALSE (0000ms, 0842ms total)
T2304 001:829 JLINK_IsHalted()  returns FALSE (0000ms, 0842ms total)
T2304 001:830 JLINK_IsHalted()  returns FALSE (0000ms, 0842ms total)
T2304 001:833 JLINK_IsHalted()  returns FALSE (0001ms, 0843ms total)
T2304 001:835 JLINK_IsHalted()  returns FALSE (0001ms, 0843ms total)
T2304 001:837 JLINK_IsHalted()  returns FALSE (0001ms, 0843ms total)
T2304 001:839 JLINK_IsHalted()  returns FALSE (0001ms, 0843ms total)
T2304 001:841 JLINK_IsHalted()  returns FALSE (0001ms, 0843ms total)
T2304 001:843 JLINK_IsHalted()  returns FALSE (0001ms, 0843ms total)
T2304 001:845 JLINK_IsHalted()  returns FALSE (0001ms, 0843ms total)
T2304 001:847 JLINK_IsHalted()  returns FALSE (0001ms, 0843ms total)
T2304 001:849 JLINK_IsHalted()  returns FALSE (0001ms, 0843ms total)
T2304 001:851 JLINK_IsHalted()  returns FALSE (0001ms, 0843ms total)
T2304 001:853 JLINK_IsHalted() -- CPU_ReadMem(2 bytes @ 0x20000000)  returns TRUE (0006ms, 0848ms total)
T2304 001:859 JLINK_ReadReg(R15 (PC))  returns 0x20000000 (0000ms, 0842ms total)
T2304 001:859 JLINK_ClrBPEx(BPHandle = 0x0000000F)  returns 0x00 (0000ms, 0842ms total)
T2304 001:859 JLINK_ReadReg(R0)  returns 0x00000000 (0000ms, 0842ms total)
T2304 001:860 JLINK_WriteMem(0x20000164, 0x0400 Bytes, ...) - Data: 01 46 02 48 00 68 40 7C 00 F0 02 B8 E8 00 00 20 ... -- CPU_WriteMem(1024 bytes @ 0x20000164)  returns 0x400 (0006ms, 0848ms total)
T2304 001:866 JLINK_WriteReg(R0, 0x08002C00)  returns 0x00 (0000ms, 0848ms total)
T2304 001:867 JLINK_WriteReg(R1, 0x00000400)  returns 0x00 (0000ms, 0848ms total)
T2304 001:867 JLINK_WriteReg(R2, 0x20000164)  returns 0x00 (0000ms, 0848ms total)
T2304 001:867 JLINK_WriteReg(R3, 0x00000000)  returns 0x00 (0000ms, 0848ms total)
T2304 001:867 JLINK_WriteReg(R4, 0x00000000)  returns 0x00 (0000ms, 0848ms total)
T2304 001:867 JLINK_WriteReg(R5, 0x00000000)  returns 0x00 (0000ms, 0848ms total)
T2304 001:867 JLINK_WriteReg(R6, 0x00000000)  returns 0x00 (0000ms, 0848ms total)
T2304 001:868 JLINK_WriteReg(R7, 0x00000000)  returns 0x00 (0000ms, 0848ms total)
T2304 001:868 JLINK_WriteReg(R8, 0x00000000)  returns 0x00 (0000ms, 0848ms total)
T2304 001:868 JLINK_WriteReg(R9, 0x20000160)  returns 0x00 (0000ms, 0848ms total)
T2304 001:868 JLINK_WriteReg(R10, 0x00000000)  returns 0x00 (0000ms, 0848ms total)
T2304 001:868 JLINK_WriteReg(R11, 0x00000000)  returns 0x00 (0000ms, 0848ms total)
T2304 001:868 JLINK_WriteReg(R12, 0x00000000)  returns 0x00 (0000ms, 0848ms total)
T2304 001:868 JLINK_WriteReg(R13 (SP), 0x20000800)  returns 0x00 (0000ms, 0848ms total)
T2304 001:868 JLINK_WriteReg(R14, 0x20000001)  returns 0x00 (0000ms, 0848ms total)
T2304 001:869 JLINK_WriteReg(R15 (PC), 0x200000F4)  returns 0x00 (0000ms, 0849ms total)
T2304 001:869 JLINK_WriteReg(XPSR, 0x01000000)  returns 0x00 (0000ms, 0849ms total)
T2304 001:869 JLINK_WriteReg(MSP, 0x20000800)  returns 0x00 (0000ms, 0849ms total)
T2304 001:869 JLINK_WriteReg(PSP, 0x20000800)  returns 0x00 (0000ms, 0849ms total)
T2304 001:869 JLINK_WriteReg(CFBP, 0x00000000)  returns 0x00 (0000ms, 0849ms total)
T2304 001:869 JLINK_SetBPEx(Addr = 0x20000000, Type = 0xFFFFFFF2)  returns 0x00000010 (0000ms, 0849ms total)
T2304 001:869 JLINK_Go() (0003ms, 0852ms total)
